
T1454 000:700 SEGGER J-Link V4.35b (beta) Log File (0002ms, 0699ms total)
T1454 000:700 DLL Compiled: Sep  2 2011 18:34:46 (0002ms, 0699ms total)
T1454 000:700 Logging started @ 2014-06-17 18:51 (0002ms, 0699ms total)
T1454 000:702 JLINK_SetWarnOutHandler(...) (0000ms, 0701ms total)
T1454 000:702 JLINK_OpenEx(...)
Firmware: J-Link ARM V8 compiled Nov  8 2013 12:07:30
Hardware: V8.00
S/N: 17935099
Feature(s): RDI,FlashDL,FlashBP,JFlash  returns O.K. (0407ms, 0701ms total)
T1454 001:110 JLINK_SetErrorOutHandler(...) (0000ms, 1108ms total)
T1454 001:111 JLINK_ExecCommand("Device = STM32F103VE", ...)
                JLINK_ExecCommand("map ram 0x20000000 - 0x2000FFFF", ...)  returns 0x00 (0000ms, 0000ms total)
                JLINK_AddMirrorAreaEx(Addr = 0x00000000, Size = 0x00000000) (0000ms, 0000ms total)
              Device "STM32F103VE" selected (512 KB flash, 64 KB RAM).  returns 0x00 (0005ms, 1108ms total)
T1454 001:117 JLINK_ExecCommand("ProjectFile = "D:\GitHub\simae-stm32\JLinkSettings.ini"", ...)  returns 0x00 (0003ms, 1113ms total)
T1454 001:122 JLINK_ExecCommand("DisableConnectionTimeout", ...)  returns 0x00 (0000ms, 1117ms total)
T1454 001:131 JLINK_TIF_Select(JLINKARM_TIF_JTAG)  returns 0x00 (0000ms, 1117ms total)
T1454 001:131 JLINK_SetSpeed(2000) (0000ms, 1117ms total)
T1454 001:131 JLINK_GetHardwareVersion()  returns 0x13880 (0000ms, 1117ms total)
T1454 001:131 JLINK_GetDLLVersion()  returns 43502 (0000ms, 1117ms total)
T1454 001:131 JLINK_GetFirmwareString(...) (0000ms, 1117ms total)
T1454 001:132 JLINK_GetDLLVersion()  returns 43502 (0000ms, 1117ms total)
T1454 001:132 JLINK_GetCompileDateTime() (0000ms, 1117ms total)
T1454 001:133 JLINK_GetFirmwareString(...) (0000ms, 1117ms total)
T1454 001:133 JLINK_GetHardwareVersion()  returns 0x13880 (0000ms, 1117ms total)
T1454 001:135 JLINK_GetIdData(...) >0x2F8 JTAG>TotalIRLen = 9, IRPrint = 0x0011 >0x30 JTAG> >0x210 JTAG> >0x80 JTAG> >0x40 JTAG> >0x40 JTAG> >0x50 JTAG> >0x40 JTAG> >0x40 JTAG> >0x40 JTAG> >0x50 JTAG> >0x40 JTAG> >0x50 JTAG> >0x40 JTAG> >0x40 JTAG> >0x40 JTAG> >0x30 JTAG> >0x40 JTAG> >0x50 JTAG> >0x40 JTAG> >0x38 JTAG> >0x80 JTAG> >0x40 JTAG> >0x40 JTAG> >0x50 JTAG> >0x40 JTAG> >0x40 JTAG> >0x40 JTAG> >0x50 JTAG> >0x40 JTAG> >0x40 JTAG> >0x30 JTAG> >0x40 JTAG> >0x40 JTAG> >0x40 JTAG> >0x40 JTAG>
 >0x40 JTAG> >0x50 JTAG> >0x40 JTAG> >0x80 JTAG> >0x40 JTAG> >0x30 JTAG> >0x40 JTAG> >0x40 JTAG> >0x40 JTAG> >0x40 JTAG> >0x40 JTAG> >0x50 JTAG> >0x40 JTAG> >0x80 JTAG> >0x40 JTAG> >0x30 JTAG> >0x40 JTAG> >0x50 JTAG> >0x40 JTAG> >0x40 JTAG> >0x40 JTAG> >0x30 JTAG> >0x40 JTAG> >0x50 JTAG> >0x40 JTAG>Found Cortex-M3 r1p1, Little endian. >0x50 JTAG> >0x50 JTAG> >0x40 JTAG> >0x40 JTAG> >0x30 JTAG> >0x30 JTAG> >0x50 JTAG> >0x40 JTAG> >0x80 JTAG> >0x40 JTAG> >0x30 JTAG> >0x40 JTAG> >0x50 JTAG> >0x40 JTAG>
 >0x40 JTAG> >0x40 JTAG> >0x30 JTAG> >0x40 JTAG> >0x50 JTAG> >0x40 JTAG>TPIU fitted. >0x40 JTAG> >0x40 JTAG> >0x30 JTAG> >0x40 JTAG> >0x50 JTAG> >0x40 JTAG>ETM fitted. >0x40 JTAG> >0x40 JTAG> >0x30 JTAG> >0x40 JTAG> >0x50 JTAG> >0x40 JTAG> >0x40 JTAG> >0x40 JTAG> >0x30 JTAG> >0x40 JTAG> >0x50 JTAG> >0x40 JTAG>  FPUnit: 6 code (BP) slots and 2 literal slots >0x40 JTAG> >0x40 JTAG> >0x30 JTAG> >0x40 JTAG> >0x50 JTAG> >0x40 JTAG> ScanLen=9 NumDevices=2 aId[0]=0x3BA00477 aIrRead[0]=0 aScanLen[0]=0
 aScanRead[0]=0 (0110ms, 1117ms total)
T1454 001:245 JLINK_JTAG_GetDeviceID(DeviceIndex = 0)  returns 0x3BA00477 (0000ms, 1227ms total)
T1454 001:245 JLINK_JTAG_GetDeviceInfo(DeviceIndex = 0)  returns 0x00 (0000ms, 1227ms total)
T1454 001:246 JLINK_JTAG_GetDeviceID(DeviceIndex = 1)  returns 0x6414041 (0000ms, 1228ms total)
T1454 001:246 JLINK_JTAG_GetDeviceInfo(DeviceIndex = 1)  returns 0x00 (0000ms, 1228ms total)
T1454 001:246 JLINK_GetDebugInfo(0x100) -- Value=0xE00FF003  returns 0x00 (0000ms, 1228ms total)
T1454 001:247 JLINK_ReadMem (0xE00FFFF0, 0x0010 Bytes, ...) -- CPU is running -- CPU_ReadMem(16 bytes @ 0xE00FFFF0) -- Data:  0D 00 00 00 10 00 00 00 05 00 00 00 B1 00 00 00  returns 0x00 (0004ms, 1228ms total)
T1454 001:251 JLINK_ReadMem (0xE00FFFD0, 0x0020 Bytes, ...) -- CPU is running -- CPU_ReadMem(32 bytes @ 0xE00FFFD0) -- Data:  00 00 00 00 00 00 00 00 00 00 00 00 00 00 00 00 ...  returns 0x00 (0002ms, 1232ms total)
T1454 001:253 JLINK_ReadMem (0xE00FF000, 0x0018 Bytes, ...) -- CPU is running -- CPU_ReadMem(24 bytes @ 0xE00FF000) -- Data:  03 F0 F0 FF 03 20 F0 FF 03 30 F0 FF 03 10 F0 FF ...  returns 0x00 (0002ms, 1234ms total)
T1454 001:255 JLINK_ReadMemU32(0xE000ED00, 0x0001 Items, ...) -- CPU is running -- CPU_ReadMem(4 bytes @ 0xE000ED00) -- Data:  31 C2 1F 41  returns 0x01 (0001ms, 1236ms total)
T1454 001:256 JLINK_SetResetType(JLINKARM_RESET_TYPE_NORMAL)  returns JLINKARM_RESET_TYPE_NORMAL (0000ms, 1237ms total)
T1454 001:256 JLINK_Reset() >0x308 JTAG>TotalIRLen = 9, IRPrint = 0x0011 >0x30 JTAG> >0x210 JTAG> >0x80 JTAG> >0x40 JTAG> >0x40 JTAG> >0x50 JTAG> >0x40 JTAG> >0x40 JTAG> >0x40 JTAG> >0x50 JTAG> >0x40 JTAG> >0x50 JTAG> >0x40 JTAG> >0x40 JTAG> >0x40 JTAG> >0x30 JTAG> >0x40 JTAG> >0x50 JTAG> >0x40 JTAG> >0x38 JTAG> >0x80 JTAG> >0x40 JTAG> >0x40 JTAG> >0x50 JTAG> >0x40 JTAG> >0x40 JTAG> >0x40 JTAG> >0x50 JTAG> >0x40 JTAG> >0x40 JTAG> >0x30 JTAG> >0x40 JTAG> >0x40 JTAG> >0x40 JTAG> >0x40 JTAG> >0x40 JTAG>
 >0x50 JTAG> >0x40 JTAG> >0x80 JTAG> >0x40 JTAG> >0x30 JTAG> >0x40 JTAG> >0x40 JTAG> >0x40 JTAG> >0x40 JTAG> >0x40 JTAG> >0x50 JTAG> >0x40 JTAG> >0x80 JTAG> >0x40 JTAG> >0x30 JTAG> >0x40 JTAG> >0x50 JTAG> >0x40 JTAG> >0x40 JTAG> >0x40 JTAG> >0x30 JTAG> >0x40 JTAG> >0x50 JTAG> >0x40 JTAG>Found Cortex-M3 r1p1, Little endian. >0x50 JTAG> >0x50 JTAG> >0x40 JTAG> >0x40 JTAG> >0x30 JTAG> >0x30 JTAG> >0x50 JTAG> >0x40 JTAG> >0x80 JTAG> >0x40 JTAG> >0x30 JTAG> >0x40 JTAG> >0x50 JTAG> >0x40 JTAG> >0x40 JTAG>
 >0x40 JTAG> >0x30 JTAG> >0x40 JTAG> >0x50 JTAG> >0x40 JTAG>TPIU fitted. >0x40 JTAG> >0x40 JTAG> >0x30 JTAG> >0x40 JTAG> >0x50 JTAG> >0x40 JTAG>ETM fitted. >0x40 JTAG> >0x40 JTAG> >0x30 JTAG> >0x40 JTAG> >0x50 JTAG> >0x40 JTAG> >0x40 JTAG> >0x40 JTAG> >0x30 JTAG> >0x40 JTAG> >0x50 JTAG> >0x40 JTAG>  FPUnit: 6 code (BP) slots and 2 literal slots >0x40 JTAG> >0x40 JTAG> >0x30 JTAG> >0x40 JTAG> >0x50 JTAG> >0x40 JTAG> -- CPU is running -- CPU_WriteMem(4 bytes @ 0xE000EDF0) -- CPU is running
 -- CPU_WriteMem(4 bytes @ 0xE000EDFC) -- CPU is running -- CPU_WriteMem(4 bytes @ 0xE000ED0C) -- CPU is running -- CPU_ReadMem(4 bytes @ 0xE000EDF0) -- CPU is running -- CPU_ReadMem(4 bytes @ 0xE000EDF0) -- CPU is running -- CPU_WriteMem(4 bytes @ 0xE000EDF0) -- CPU is running -- CPU_WriteMem(4 bytes @ 0xE000EDFC) -- CPU is running -- CPU_ReadMem(4 bytes @ 0xE000EDF0) >0x90 JTAG> >0x40 JTAG> >0x30 JTAG> >0x40 JTAG> >0x50 JTAG> >0x40 JTAG> -- CPU_WriteMem(4 bytes @ 0xE000EDFC)
 -- CPU_WriteMem(4 bytes @ 0xE0001028) -- CPU_WriteMem(4 bytes @ 0xE0001038) -- CPU_WriteMem(4 bytes @ 0xE0001048) -- CPU_WriteMem(4 bytes @ 0xE0001058) (0143ms, 1237ms total)
T1454 001:399 JLINK_ReadReg(R15)  returns 0x080005A0 (0000ms, 1380ms total)
T1454 001:399 JLINK_ReadReg(XPSR)  returns 0x01000000 (0000ms, 1380ms total)
T1454 001:399 JLINK_Halt()  returns 0x00 (0001ms, 1380ms total)
T1454 001:400 JLINK_IsHalted()  returns TRUE (0000ms, 1381ms total)
T1454 001:400 JLINK_ReadMemU32(0xE000EDF0, 0x0001 Items, ...) -- CPU_ReadMem(4 bytes @ 0xE000EDF0) -- Data:  03 00 03 00  returns 0x01 (0001ms, 1381ms total)
T1454 001:401 JLINK_WriteU32(0xE000EDF0, 0xA05F0003) -- CPU_WriteMem(4 bytes @ 0xE000EDF0)  returns 0x00 (0001ms, 1382ms total)
T1454 001:402 JLINK_WriteU32(0xE000EDFC, 0x01000000) -- CPU_WriteMem(4 bytes @ 0xE000EDFC)  returns 0x00 (0001ms, 1383ms total)
T1454 001:403 JLINK_ReadMemU32(0xE0002000, 0x0001 Items, ...) -- CPU_ReadMem(4 bytes @ 0xE0002000) -- Data:  60 02 00 00  returns 0x01 (0001ms, 1384ms total)
T1454 001:404 JLINK_ReadMemU32(0xE0001000, 0x0001 Items, ...) -- CPU_ReadMem(4 bytes @ 0xE0001000) -- Data:  01 00 00 40  returns 0x01 (0001ms, 1385ms total)
T1454 001:405 JLINK_WriteU32(0xE0001028, 0x00000000) -- CPU_WriteMem(4 bytes @ 0xE0001028)  returns 0x00 (0001ms, 1386ms total)
T1454 001:406 JLINK_WriteU32(0xE0001038, 0x00000000) -- CPU_WriteMem(4 bytes @ 0xE0001038)  returns 0x00 (0001ms, 1387ms total)
T1454 001:407 JLINK_WriteU32(0xE0001048, 0x00000000) -- CPU_WriteMem(4 bytes @ 0xE0001048)  returns 0x00 (0001ms, 1388ms total)
T1454 001:408 JLINK_WriteU32(0xE0001058, 0x00000000) -- CPU_WriteMem(4 bytes @ 0xE0001058)  returns 0x00 (0001ms, 1389ms total)
T1454 001:410 JLINK_GetHWStatus(...)  returns 0x00 (0001ms, 1390ms total)
T1454 001:412 JLINK_GetNumBPUnits(Type = 0xFFFFFF00)  returns 0x06 (0000ms, 1391ms total)
T1454 001:412 JLINK_GetNumBPUnits(Type = 0xF0)  returns 0x2000 (0000ms, 1391ms total)
T1454 001:412 JLINK_GetNumWPUnits()  returns 0x04 (0000ms, 1391ms total)
T1454 001:413 JLINK_GetSpeed()  returns 0x7D0 (0000ms, 1391ms total)
T1454 001:413 JLINK_ReadMemU32(0xE000E004, 0x0001 Items, ...) -- CPU_ReadMem(4 bytes @ 0xE000E004) -- Data:  01 00 00 00  returns 0x01 (0001ms, 1391ms total)
T1454 001:414 JLINK_ReadMemU32(0xE000E004, 0x0001 Items, ...) -- CPU_ReadMem(4 bytes @ 0xE000E004) -- Data:  01 00 00 00  returns 0x01 (0001ms, 1392ms total)
T1454 001:415 JLINK_WriteMem(0xE0001000, 0x001C Bytes, ...) -- Data:  01 00 00 00 00 00 00 00 00 00 00 00 00 00 00 00 ... -- CPU_WriteMem(28 bytes @ 0xE0001000)  returns 0x1C (0001ms, 1393ms total)
T1454 001:416 JLINK_ReadMem (0xE0001000, 0x001C Bytes, ...) -- CPU_ReadMem(28 bytes @ 0xE0001000) -- Data:  01 00 00 40 00 00 00 00 00 00 00 00 00 00 00 00 ...  returns 0x00 (0002ms, 1394ms total)
T1454 001:418 JLINK_ReadReg(R15)  returns 0x080005A0 (0000ms, 1396ms total)
T1454 001:418 JLINK_ReadReg(XPSR)  returns 0x01000000 (0000ms, 1396ms total)
T1454 001:595 JLINK_SetResetType(JLINKARM_RESET_TYPE_NORMAL)  returns JLINKARM_RESET_TYPE_NORMAL (0000ms, 1396ms total)
T1454 001:595 JLINK_Reset() >0x2F8 JTAG>TotalIRLen = 9, IRPrint = 0x0011 >0x30 JTAG> >0x210 JTAG> >0x80 JTAG> >0x40 JTAG> >0x40 JTAG> >0x50 JTAG> >0x40 JTAG> >0x40 JTAG> >0x40 JTAG> >0x50 JTAG> >0x40 JTAG> >0x50 JTAG> >0x40 JTAG> >0x40 JTAG> >0x40 JTAG> >0x30 JTAG> >0x40 JTAG> >0x50 JTAG> >0x40 JTAG> >0x38 JTAG> >0x80 JTAG> >0x40 JTAG> >0x40 JTAG> >0x50 JTAG> >0x40 JTAG> >0x40 JTAG> >0x40 JTAG> >0x50 JTAG> >0x40 JTAG> >0x40 JTAG> >0x30 JTAG> >0x40 JTAG> >0x40 JTAG> >0x40 JTAG> >0x40 JTAG> >0x40 JTAG>
 >0x50 JTAG> >0x40 JTAG> >0x80 JTAG> >0x40 JTAG> >0x30 JTAG> >0x40 JTAG> >0x40 JTAG> >0x40 JTAG> >0x40 JTAG> >0x40 JTAG> >0x50 JTAG> >0x40 JTAG> >0x80 JTAG> >0x40 JTAG> >0x30 JTAG> >0x40 JTAG> >0x50 JTAG> >0x40 JTAG> >0x40 JTAG> >0x40 JTAG> >0x30 JTAG> >0x40 JTAG> >0x50 JTAG> >0x40 JTAG>Found Cortex-M3 r1p1, Little endian. >0x50 JTAG> >0x50 JTAG> >0x40 JTAG> >0x40 JTAG> >0x30 JTAG> >0x30 JTAG> >0x50 JTAG> >0x40 JTAG> >0x80 JTAG> >0x40 JTAG> >0x30 JTAG> >0x40 JTAG> >0x50 JTAG> >0x40 JTAG> >0x40 JTAG>
 >0x40 JTAG> >0x30 JTAG> >0x40 JTAG> >0x50 JTAG> >0x40 JTAG>TPIU fitted. >0x40 JTAG> >0x40 JTAG> >0x30 JTAG> >0x40 JTAG> >0x50 JTAG> >0x40 JTAG>ETM fitted. >0x40 JTAG> >0x40 JTAG> >0x30 JTAG> >0x40 JTAG> >0x50 JTAG> >0x40 JTAG> >0x40 JTAG> >0x40 JTAG> >0x30 JTAG> >0x40 JTAG> >0x50 JTAG> >0x40 JTAG>  FPUnit: 6 code (BP) slots and 2 literal slots >0x40 JTAG> >0x40 JTAG> >0x30 JTAG> >0x40 JTAG> >0x50 JTAG> >0x40 JTAG> -- CPU_WriteMem(4 bytes @ 0xE000EDF0) -- CPU_WriteMem(4 bytes @ 0xE000EDFC)
 -- CPU_WriteMem(4 bytes @ 0xE000ED0C) -- CPU_ReadMem(4 bytes @ 0xE000EDF0) -- CPU_ReadMem(4 bytes @ 0xE000EDF0) -- CPU_WriteMem(4 bytes @ 0xE000EDF0) -- CPU_WriteMem(4 bytes @ 0xE000EDFC) -- CPU is running -- CPU_ReadMem(4 bytes @ 0xE000EDF0) >0x90 JTAG> >0x40 JTAG> >0x30 JTAG> >0x40 JTAG> >0x50 JTAG> >0x40 JTAG> -- CPU_WriteMem(4 bytes @ 0xE000EDFC) -- CPU_WriteMem(4 bytes @ 0xE0001028) -- CPU_WriteMem(4 bytes @ 0xE0001038) -- CPU_WriteMem(4 bytes @ 0xE0001048) -- CPU_WriteMem(4 bytes @ 0xE0001058)
 (0154ms, 1396ms total)
T1454 001:749 JLINK_ReadReg(R15)  returns 0x080005A0 (0000ms, 1550ms total)
T1454 001:749 JLINK_ReadReg(XPSR)  returns 0x01000000 (0001ms, 1550ms total)
T1454 001:750 JLINK_ReadReg(R0)  returns 0x00000000 (0000ms, 1551ms total)
T1454 001:750 JLINK_ReadReg(R1)  returns 0x00000003 (0000ms, 1551ms total)
T1454 001:750 JLINK_ReadReg(R2)  returns 0x40022000 (0000ms, 1551ms total)
T1454 001:750 JLINK_ReadReg(R3)  returns 0x04C11DB7 (0000ms, 1551ms total)
T1454 001:750 JLINK_ReadReg(R4)  returns 0x00000000 (0000ms, 1551ms total)
T1454 001:750 JLINK_ReadReg(R5)  returns 0x00000000 (0000ms, 1551ms total)
T1454 001:750 JLINK_ReadReg(R6)  returns 0x00000000 (0000ms, 1551ms total)
T1454 001:750 JLINK_ReadReg(R7)  returns 0x00000000 (0000ms, 1551ms total)
T1454 001:750 JLINK_ReadReg(R8)  returns 0x00000000 (0000ms, 1551ms total)
T1454 001:750 JLINK_ReadReg(R9)  returns 0x20000160 (0000ms, 1551ms total)
T1454 001:750 JLINK_ReadReg(R10)  returns 0x00000000 (0001ms, 1551ms total)
T1454 001:751 JLINK_ReadReg(R11)  returns 0x00000000 (0000ms, 1552ms total)
T1454 001:751 JLINK_ReadReg(R12)  returns 0x00000000 (0000ms, 1552ms total)
T1454 001:751 JLINK_ReadReg(R13)  returns 0x20000690 (0000ms, 1552ms total)
T1454 001:751 JLINK_ReadReg(R14)  returns 0xFFFFFFFF (0000ms, 1552ms total)
T1454 001:751 JLINK_ReadReg(R15)  returns 0x080005A0 (0000ms, 1552ms total)
T1454 001:751 JLINK_ReadReg(XPSR)  returns 0x01000000 (0000ms, 1552ms total)
T1454 001:751 JLINK_ReadReg(MSP)  returns 0x20000690 (0000ms, 1552ms total)
T1454 001:751 JLINK_ReadReg(PSP)  returns 0x20000800 (0000ms, 1552ms total)
T1454 001:751 JLINK_ReadReg(BASEPRI)  returns 0x00000000 (0000ms, 1552ms total)
T1454 001:751 JLINK_ReadReg(CONTROL)  returns 0x00000000 (0000ms, 1552ms total)
T1454 001:751 JLINK_ReadReg(FAULTMASK)  returns 0x00000000 (0000ms, 1552ms total)
T1454 001:752 JLINK_ReadReg(BASEPRI_MAX)  returns 0x00000000 (0000ms, 1552ms total)
T1454 001:752 JLINK_ReadMemU32(0xE0001004, 0x0001 Items, ...) -- CPU_ReadMem(4 bytes @ 0xE0001004) -- Data:  00 00 00 00  returns 0x01 (0001ms, 1552ms total)
T1454 001:755 JLINK_ReadMem (0x080005A0, 0x003C Bytes, ...) -- CPU_ReadMem(128 bytes @ 0x08000580) -- Updating C cache (128 bytes @ 0x08000580) -- Read from C cache (60 bytes @ 0x080005A0) -- Data:  09 48 80 47 09 48 00 47 FE E7 FE E7 FE E7 FE E7 ...  returns 0x00 (0003ms, 1553ms total)
T1454 002:154 JLINK_ReadMem (0x40011000, 0x0018 Bytes, ...) -- CPU_ReadMem(24 bytes @ 0x40011000) -- Data:  44 44 44 44 44 44 44 44 00 00 00 00 00 00 00 00 ...  returns 0x00 (0001ms, 1556ms total)
T1454 002:156 JLINK_ReadMem (0x40011018, 0x0004 Bytes, ...) -- CPU_ReadMem(4 bytes @ 0x40011018) -- Data:  00 00 00 00  returns 0x00 (0001ms, 1557ms total)
T1454 002:157 JLINK_ReadMem (0x40011000, 0x0004 Bytes, ...) -- CPU_ReadMem(4 bytes @ 0x40011000) -- Data:  44 44 44 44  returns 0x00 (0001ms, 1558ms total)
T1454 002:158 JLINK_ReadMem (0x40011000, 0x0004 Bytes, ...) -- CPU_ReadMem(4 bytes @ 0x40011000) -- Data:  44 44 44 44  returns 0x00 (0001ms, 1559ms total)
T1454 002:159 JLINK_ReadMem (0x40011000, 0x0004 Bytes, ...) -- CPU_ReadMem(4 bytes @ 0x40011000) -- Data:  44 44 44 44  returns 0x00 (0001ms, 1560ms total)
T1454 002:160 JLINK_ReadMem (0x40011000, 0x0004 Bytes, ...) -- CPU_ReadMem(4 bytes @ 0x40011000) -- Data:  44 44 44 44  returns 0x00 (0001ms, 1561ms total)
T1454 002:161 JLINK_ReadMem (0x40011000, 0x0004 Bytes, ...) -- CPU_ReadMem(4 bytes @ 0x40011000) -- Data:  44 44 44 44  returns 0x00 (0001ms, 1562ms total)
T1454 002:162 JLINK_ReadMem (0x40011000, 0x0004 Bytes, ...) -- CPU_ReadMem(4 bytes @ 0x40011000) -- Data:  44 44 44 44  returns 0x00 (0001ms, 1563ms total)
T1454 002:163 JLINK_ReadMem (0x40011000, 0x0004 Bytes, ...) -- CPU_ReadMem(4 bytes @ 0x40011000) -- Data:  44 44 44 44  returns 0x00 (0001ms, 1564ms total)
T1454 002:164 JLINK_ReadMem (0x40011000, 0x0004 Bytes, ...) -- CPU_ReadMem(4 bytes @ 0x40011000) -- Data:  44 44 44 44  returns 0x00 (0001ms, 1565ms total)
T1454 002:165 JLINK_ReadMem (0x40011000, 0x0004 Bytes, ...) -- CPU_ReadMem(4 bytes @ 0x40011000) -- Data:  44 44 44 44  returns 0x00 (0001ms, 1566ms total)
T1454 002:166 JLINK_ReadMem (0x40011000, 0x0004 Bytes, ...) -- CPU_ReadMem(4 bytes @ 0x40011000) -- Data:  44 44 44 44  returns 0x00 (0001ms, 1567ms total)
T1454 002:167 JLINK_ReadMem (0x40011000, 0x0004 Bytes, ...) -- CPU_ReadMem(4 bytes @ 0x40011000) -- Data:  44 44 44 44  returns 0x00 (0001ms, 1568ms total)
T1454 002:168 JLINK_ReadMem (0x40011000, 0x0004 Bytes, ...) -- CPU_ReadMem(4 bytes @ 0x40011000) -- Data:  44 44 44 44  returns 0x00 (0002ms, 1569ms total)
T1454 002:171 JLINK_ReadMem (0x40011000, 0x0004 Bytes, ...) -- CPU_ReadMem(4 bytes @ 0x40011000) -- Data:  44 44 44 44  returns 0x00 (0001ms, 1571ms total)
T1454 002:172 JLINK_ReadMem (0x40011000, 0x0004 Bytes, ...) -- CPU_ReadMem(4 bytes @ 0x40011000) -- Data:  44 44 44 44  returns 0x00 (0001ms, 1572ms total)
T1454 002:173 JLINK_ReadMem (0x40011000, 0x0004 Bytes, ...) -- CPU_ReadMem(4 bytes @ 0x40011000) -- Data:  44 44 44 44  returns 0x00 (0001ms, 1573ms total)
T1454 002:174 JLINK_ReadMem (0x40011000, 0x0004 Bytes, ...) -- CPU_ReadMem(4 bytes @ 0x40011000) -- Data:  44 44 44 44  returns 0x00 (0001ms, 1574ms total)
T1454 002:175 JLINK_ReadMem (0x40011000, 0x0004 Bytes, ...) -- CPU_ReadMem(4 bytes @ 0x40011000) -- Data:  44 44 44 44  returns 0x00 (0001ms, 1575ms total)
T1454 002:176 JLINK_ReadMem (0x40011004, 0x0004 Bytes, ...) -- CPU_ReadMem(4 bytes @ 0x40011004) -- Data:  44 44 44 44  returns 0x00 (0001ms, 1576ms total)
T1454 002:177 JLINK_ReadMem (0x40011004, 0x0004 Bytes, ...) -- CPU_ReadMem(4 bytes @ 0x40011004) -- Data:  44 44 44 44  returns 0x00 (0001ms, 1577ms total)
T1454 002:178 JLINK_ReadMem (0x40011004, 0x0004 Bytes, ...) -- CPU_ReadMem(4 bytes @ 0x40011004) -- Data:  44 44 44 44  returns 0x00 (0001ms, 1578ms total)
T1454 002:179 JLINK_ReadMem (0x40011004, 0x0004 Bytes, ...) -- CPU_ReadMem(4 bytes @ 0x40011004) -- Data:  44 44 44 44  returns 0x00 (0001ms, 1579ms total)
T1454 002:180 JLINK_ReadMem (0x40011004, 0x0004 Bytes, ...) -- CPU_ReadMem(4 bytes @ 0x40011004) -- Data:  44 44 44 44  returns 0x00 (0001ms, 1580ms total)
T1454 002:181 JLINK_ReadMem (0x40011004, 0x0004 Bytes, ...) -- CPU_ReadMem(4 bytes @ 0x40011004) -- Data:  44 44 44 44  returns 0x00 (0001ms, 1581ms total)
T1454 002:182 JLINK_ReadMem (0x40011004, 0x0004 Bytes, ...) -- CPU_ReadMem(4 bytes @ 0x40011004) -- Data:  44 44 44 44  returns 0x00 (0001ms, 1582ms total)
T1454 002:183 JLINK_ReadMem (0x40011004, 0x0004 Bytes, ...) -- CPU_ReadMem(4 bytes @ 0x40011004) -- Data:  44 44 44 44  returns 0x00 (0001ms, 1583ms total)
T1454 002:184 JLINK_ReadMem (0x40011004, 0x0004 Bytes, ...) -- CPU_ReadMem(4 bytes @ 0x40011004) -- Data:  44 44 44 44  returns 0x00 (0001ms, 1584ms total)
T1454 002:185 JLINK_ReadMem (0x40011004, 0x0004 Bytes, ...) -- CPU_ReadMem(4 bytes @ 0x40011004) -- Data:  44 44 44 44  returns 0x00 (0001ms, 1585ms total)
T1454 002:186 JLINK_ReadMem (0x40011004, 0x0004 Bytes, ...) -- CPU_ReadMem(4 bytes @ 0x40011004) -- Data:  44 44 44 44  returns 0x00 (0001ms, 1586ms total)
T1454 002:187 JLINK_ReadMem (0x40011004, 0x0004 Bytes, ...) -- CPU_ReadMem(4 bytes @ 0x40011004) -- Data:  44 44 44 44  returns 0x00 (0001ms, 1587ms total)
T1454 002:188 JLINK_ReadMem (0x40011004, 0x0004 Bytes, ...) -- CPU_ReadMem(4 bytes @ 0x40011004) -- Data:  44 44 44 44  returns 0x00 (0001ms, 1588ms total)
T1454 002:189 JLINK_ReadMem (0x40011004, 0x0004 Bytes, ...) -- CPU_ReadMem(4 bytes @ 0x40011004) -- Data:  44 44 44 44  returns 0x00 (0001ms, 1589ms total)
T1454 002:190 JLINK_ReadMem (0x40011004, 0x0004 Bytes, ...) -- CPU_ReadMem(4 bytes @ 0x40011004) -- Data:  44 44 44 44  returns 0x00 (0001ms, 1590ms total)
T1454 002:191 JLINK_ReadMem (0x40011004, 0x0004 Bytes, ...) -- CPU_ReadMem(4 bytes @ 0x40011004) -- Data:  44 44 44 44  returns 0x00 (0001ms, 1591ms total)
T1454 002:192 JLINK_ReadMem (0x40011004, 0x0004 Bytes, ...) -- CPU_ReadMem(4 bytes @ 0x40011004) -- Data:  44 44 44 44  returns 0x00 (0001ms, 1592ms total)
T12CC 003:651 JLINK_SetBPEx(Addr = 0x08000290, Type = 0xFFFFFFF2)  returns 0x00000001 (0001ms, 1593ms total)
T12CC 003:652 JLINK_Go() -- CPU_WriteMem(4 bytes @ 0xE0002000) -- CPU_WriteMem(4 bytes @ 0xE0002008) -- CPU_WriteMem(4 bytes @ 0xE000200C) -- CPU_WriteMem(4 bytes @ 0xE0002010) -- CPU_WriteMem(4 bytes @ 0xE0002014) -- CPU_WriteMem(4 bytes @ 0xE0002018) -- CPU_WriteMem(4 bytes @ 0xE000201C) (0011ms, 1594ms total)
T12CC 003:763 JLINK_IsHalted()  returns TRUE (0006ms, 1605ms total)
T12CC 003:769 JLINK_Halt()  returns 0x00 (0000ms, 1605ms total)
T12CC 003:769 JLINK_IsHalted()  returns TRUE (0000ms, 1605ms total)
T12CC 003:769 JLINK_IsHalted()  returns TRUE (0001ms, 1605ms total)
T12CC 003:770 JLINK_IsHalted()  returns TRUE (0000ms, 1605ms total)
T12CC 003:770 JLINK_ReadReg(R15)  returns 0x08000290 (0000ms, 1605ms total)
T12CC 003:770 JLINK_ReadReg(XPSR)  returns 0x21000000 (0000ms, 1605ms total)
T12CC 003:770 JLINK_ClrBPEx(BPHandle = 0x00000001)  returns 0x00 (0000ms, 1605ms total)
T12CC 003:770 JLINK_ReadMemU32(0xE000ED30, 0x0001 Items, ...) -- CPU_ReadMem(4 bytes @ 0xE000ED30) -- Data:  03 00 00 00  returns 0x01 (0001ms, 1605ms total)
T12CC 003:771 JLINK_ReadMemU32(0xE0001028, 0x0001 Items, ...) -- CPU_ReadMem(4 bytes @ 0xE0001028) -- Data:  00 00 00 00  returns 0x01 (0001ms, 1606ms total)
T12CC 003:772 JLINK_ReadMemU32(0xE0001038, 0x0001 Items, ...) -- CPU_ReadMem(4 bytes @ 0xE0001038) -- Data:  00 02 00 00  returns 0x01 (0001ms, 1607ms total)
T12CC 003:773 JLINK_ReadMemU32(0xE0001048, 0x0001 Items, ...) -- CPU_ReadMem(4 bytes @ 0xE0001048) -- Data:  00 00 00 00  returns 0x01 (0005ms, 1608ms total)
T12CC 003:778 JLINK_ReadMemU32(0xE0001058, 0x0001 Items, ...) -- CPU_ReadMem(4 bytes @ 0xE0001058) -- Data:  00 00 00 00  returns 0x01 (0001ms, 1613ms total)
T1454 003:781 JLINK_ReadReg(R0)  returns 0x20000090 (0000ms, 1614ms total)
T1454 003:781 JLINK_ReadReg(R1)  returns 0x20000290 (0000ms, 1614ms total)
T1454 003:781 JLINK_ReadReg(R2)  returns 0x20000290 (0000ms, 1614ms total)
T1454 003:781 JLINK_ReadReg(R3)  returns 0x20000290 (0000ms, 1614ms total)
T1454 003:781 JLINK_ReadReg(R4)  returns 0x00000000 (0000ms, 1614ms total)
T1454 003:781 JLINK_ReadReg(R5)  returns 0x2000002C (0001ms, 1614ms total)
T1454 003:782 JLINK_ReadReg(R6)  returns 0x00000000 (0000ms, 1615ms total)
T1454 003:782 JLINK_ReadReg(R7)  returns 0x00000000 (0000ms, 1615ms total)
T1454 003:782 JLINK_ReadReg(R8)  returns 0x00000000 (0000ms, 1615ms total)
T1454 003:782 JLINK_ReadReg(R9)  returns 0x20000160 (0000ms, 1615ms total)
T1454 003:782 JLINK_ReadReg(R10)  returns 0x08000E48 (0000ms, 1615ms total)
T1454 003:782 JLINK_ReadReg(R11)  returns 0x00000000 (0000ms, 1615ms total)
T1454 003:782 JLINK_ReadReg(R12)  returns 0x2000006C (0000ms, 1615ms total)
T1454 003:782 JLINK_ReadReg(R13)  returns 0x20000690 (0000ms, 1615ms total)
T1454 003:782 JLINK_ReadReg(R14)  returns 0x080001BF (0000ms, 1615ms total)
T1454 003:782 JLINK_ReadReg(R15)  returns 0x08000290 (0000ms, 1615ms total)
T1454 003:782 JLINK_ReadReg(XPSR)  returns 0x21000000 (0000ms, 1615ms total)
T1454 003:782 JLINK_ReadReg(MSP)  returns 0x20000690 (0000ms, 1615ms total)
T1454 003:782 JLINK_ReadReg(PSP)  returns 0x20000800 (0001ms, 1615ms total)
T1454 003:783 JLINK_ReadReg(BASEPRI)  returns 0x00000000 (0000ms, 1616ms total)
T1454 003:783 JLINK_ReadReg(CONTROL)  returns 0x00000000 (0000ms, 1616ms total)
T1454 003:783 JLINK_ReadReg(FAULTMASK)  returns 0x00000000 (0000ms, 1616ms total)
T1454 003:783 JLINK_ReadReg(BASEPRI_MAX)  returns 0x00000000 (0000ms, 1616ms total)
T1454 003:793 JLINK_ReadMemU32(0xE0001004, 0x0001 Items, ...) -- CPU_ReadMem(4 bytes @ 0xE0001004) -- Data:  26 1D 00 00  returns 0x01 (0001ms, 1616ms total)
T1454 003:796 JLINK_ReadMem (0x40011000, 0x0018 Bytes, ...) -- CPU_ReadMem(24 bytes @ 0x40011000) -- Data:  44 44 44 44 44 44 44 44 00 00 00 00 00 00 00 00 ...  returns 0x00 (0002ms, 1617ms total)
T1454 003:798 JLINK_ReadMem (0x40011018, 0x0004 Bytes, ...) -- CPU_ReadMem(4 bytes @ 0x40011018) -- Data:  00 00 00 00  returns 0x00 (0001ms, 1619ms total)
T12CC 007:774 JLINK_Go() -- CPU_WriteMem(4 bytes @ 0xE0002008) -- CPU_WriteMem(4 bytes @ 0xE000200C) -- CPU_WriteMem(4 bytes @ 0xE0002010) -- CPU_WriteMem(4 bytes @ 0xE0002014) -- CPU_WriteMem(4 bytes @ 0xE0002018) -- CPU_WriteMem(4 bytes @ 0xE000201C) (0011ms, 1620ms total)
T12CC 007:885 JLINK_IsHalted()  returns FALSE (0001ms, 1631ms total)
T12CC 007:986 JLINK_IsHalted()  returns FALSE (0001ms, 1631ms total)
T12CC 008:087 JLINK_IsHalted()  returns FALSE (0001ms, 1631ms total)
T12CC 008:188 JLINK_IsHalted()  returns FALSE (0001ms, 1631ms total)
T12CC 008:289 JLINK_IsHalted()  returns FALSE (0001ms, 1631ms total)
T12CC 008:390 JLINK_ReadMemU32(0xE0001004, 0x0001 Items, ...) -- CPU is running -- CPU_ReadMem(4 bytes @ 0xE0001004) -- Data:  56 BB 99 02  returns 0x01 (0001ms, 1631ms total)
T1454 008:392 JLINK_ReadMem (0x40011000, 0x0018 Bytes, ...) -- CPU is running -- CPU_ReadMem(24 bytes @ 0x40011000) -- Data:  22 22 44 44 44 44 44 44 FF FF 00 00 0F 00 00 00 ...  returns 0x00 (0001ms, 1632ms total)
T1454 008:393 JLINK_ReadMem (0x40011018, 0x0004 Bytes, ...) -- CPU is running -- CPU_ReadMem(4 bytes @ 0x40011018) -- Data:  00 00 00 00  returns 0x00 (0001ms, 1633ms total)
T1454 008:394 JLINK_ReadMem (0x40011000, 0x0004 Bytes, ...) -- CPU is running -- CPU_ReadMem(4 bytes @ 0x40011000) -- Data:  22 22 44 44  returns 0x00 (0001ms, 1634ms total)
T1454 008:395 JLINK_ReadMem (0x40011000, 0x0004 Bytes, ...) -- CPU is running -- CPU_ReadMem(4 bytes @ 0x40011000) -- Data:  22 22 44 44  returns 0x00 (0001ms, 1635ms total)
T1454 008:396 JLINK_ReadMem (0x40011000, 0x0004 Bytes, ...) -- CPU is running -- CPU_ReadMem(4 bytes @ 0x40011000) -- Data:  22 22 44 44  returns 0x00 (0001ms, 1636ms total)
T1454 008:397 JLINK_ReadMem (0x40011000, 0x0004 Bytes, ...) -- CPU is running -- CPU_ReadMem(4 bytes @ 0x40011000) -- Data:  22 22 44 44  returns 0x00 (0001ms, 1637ms total)
T1454 008:398 JLINK_ReadMem (0x40011000, 0x0004 Bytes, ...) -- CPU is running -- CPU_ReadMem(4 bytes @ 0x40011000) -- Data:  22 22 44 44  returns 0x00 (0001ms, 1638ms total)
T1454 008:399 JLINK_ReadMem (0x40011000, 0x0004 Bytes, ...) -- CPU is running -- CPU_ReadMem(4 bytes @ 0x40011000) -- Data:  22 22 44 44  returns 0x00 (0001ms, 1639ms total)
T1454 008:400 JLINK_ReadMem (0x40011000, 0x0004 Bytes, ...) -- CPU is running -- CPU_ReadMem(4 bytes @ 0x40011000) -- Data:  22 22 44 44  returns 0x00 (0001ms, 1640ms total)
T1454 008:401 JLINK_ReadMem (0x40011000, 0x0004 Bytes, ...) -- CPU is running -- CPU_ReadMem(4 bytes @ 0x40011000) -- Data:  22 22 44 44  returns 0x00 (0001ms, 1641ms total)
T1454 008:402 JLINK_ReadMem (0x40011000, 0x0004 Bytes, ...) -- CPU is running -- CPU_ReadMem(4 bytes @ 0x40011000) -- Data:  22 22 44 44  returns 0x00 (0001ms, 1642ms total)
T1454 008:403 JLINK_ReadMem (0x40011000, 0x0004 Bytes, ...) -- CPU is running -- CPU_ReadMem(4 bytes @ 0x40011000) -- Data:  22 22 44 44  returns 0x00 (0001ms, 1643ms total)
T1454 008:404 JLINK_ReadMem (0x40011000, 0x0004 Bytes, ...) -- CPU is running -- CPU_ReadMem(4 bytes @ 0x40011000) -- Data:  22 22 44 44  returns 0x00 (0001ms, 1644ms total)
T1454 008:405 JLINK_ReadMem (0x40011000, 0x0004 Bytes, ...) -- CPU is running -- CPU_ReadMem(4 bytes @ 0x40011000) -- Data:  22 22 44 44  returns 0x00 (0001ms, 1645ms total)
T1454 008:406 JLINK_ReadMem (0x40011000, 0x0004 Bytes, ...) -- CPU is running -- CPU_ReadMem(4 bytes @ 0x40011000) -- Data:  22 22 44 44  returns 0x00 (0001ms, 1646ms total)
T1454 008:407 JLINK_ReadMem (0x40011000, 0x0004 Bytes, ...) -- CPU is running -- CPU_ReadMem(4 bytes @ 0x40011000) -- Data:  22 22 44 44  returns 0x00 (0002ms, 1647ms total)
T1454 008:409 JLINK_ReadMem (0x40011000, 0x0004 Bytes, ...) -- CPU is running -- CPU_ReadMem(4 bytes @ 0x40011000) -- Data:  22 22 44 44  returns 0x00 (0001ms, 1649ms total)
T1454 008:410 JLINK_ReadMem (0x40011000, 0x0004 Bytes, ...) -- CPU is running -- CPU_ReadMem(4 bytes @ 0x40011000) -- Data:  22 22 44 44  returns 0x00 (0001ms, 1650ms total)
T1454 008:411 JLINK_ReadMem (0x40011000, 0x0004 Bytes, ...) -- CPU is running -- CPU_ReadMem(4 bytes @ 0x40011000) -- Data:  22 22 44 44  returns 0x00 (0001ms, 1651ms total)
T1454 008:419 JLINK_ReadMem (0x40011008, 0x0004 Bytes, ...) -- CPU is running -- CPU_ReadMem(4 bytes @ 0x40011008) -- Data:  FF FF 00 00  returns 0x00 (0002ms, 1652ms total)
T1454 008:421 JLINK_ReadMem (0x40011008, 0x0004 Bytes, ...) -- CPU is running -- CPU_ReadMem(4 bytes @ 0x40011008) -- Data:  FF FF 00 00  returns 0x00 (0001ms, 1654ms total)
T1454 008:422 JLINK_ReadMem (0x40011008, 0x0004 Bytes, ...) -- CPU is running -- CPU_ReadMem(4 bytes @ 0x40011008) -- Data:  FF FF 00 00  returns 0x00 (0002ms, 1655ms total)
T1454 008:424 JLINK_ReadMem (0x40011008, 0x0004 Bytes, ...) -- CPU is running -- CPU_ReadMem(4 bytes @ 0x40011008) -- Data:  FF FF 00 00  returns 0x00 (0001ms, 1657ms total)
T1454 008:425 JLINK_ReadMem (0x40011008, 0x0004 Bytes, ...) -- CPU is running -- CPU_ReadMem(4 bytes @ 0x40011008) -- Data:  FF FF 00 00  returns 0x00 (0001ms, 1658ms total)
T1454 008:426 JLINK_ReadMem (0x40011008, 0x0004 Bytes, ...) -- CPU is running -- CPU_ReadMem(4 bytes @ 0x40011008) -- Data:  FF FF 00 00  returns 0x00 (0001ms, 1659ms total)
T1454 008:427 JLINK_ReadMem (0x40011008, 0x0004 Bytes, ...) -- CPU is running -- CPU_ReadMem(4 bytes @ 0x40011008) -- Data:  FF FF 00 00  returns 0x00 (0001ms, 1660ms total)
T1454 008:428 JLINK_ReadMem (0x40011008, 0x0004 Bytes, ...) -- CPU is running -- CPU_ReadMem(4 bytes @ 0x40011008) -- Data:  FF FF 00 00  returns 0x00 (0001ms, 1661ms total)
T1454 008:429 JLINK_ReadMem (0x40011008, 0x0004 Bytes, ...) -- CPU is running -- CPU_ReadMem(4 bytes @ 0x40011008) -- Data:  FF FF 00 00  returns 0x00 (0001ms, 1662ms total)
T1454 008:430 JLINK_ReadMem (0x40011008, 0x0004 Bytes, ...) -- CPU is running -- CPU_ReadMem(4 bytes @ 0x40011008) -- Data:  FF FF 00 00  returns 0x00 (0002ms, 1663ms total)
T1454 008:432 JLINK_ReadMem (0x40011008, 0x0004 Bytes, ...) -- CPU is running -- CPU_ReadMem(4 bytes @ 0x40011008) -- Data:  FF FF 00 00  returns 0x00 (0001ms, 1665ms total)
T1454 008:433 JLINK_ReadMem (0x40011008, 0x0004 Bytes, ...) -- CPU is running -- CPU_ReadMem(4 bytes @ 0x40011008) -- Data:  FF FF 00 00  returns 0x00 (0001ms, 1666ms total)
T1454 008:434 JLINK_ReadMem (0x40011008, 0x0004 Bytes, ...) -- CPU is running -- CPU_ReadMem(4 bytes @ 0x40011008) -- Data:  FF FF 00 00  returns 0x00 (0001ms, 1667ms total)
T1454 008:435 JLINK_ReadMem (0x40011008, 0x0004 Bytes, ...) -- CPU is running -- CPU_ReadMem(4 bytes @ 0x40011008) -- Data:  FF FF 00 00  returns 0x00 (0001ms, 1668ms total)
T1454 008:436 JLINK_ReadMem (0x40011008, 0x0004 Bytes, ...) -- CPU is running -- CPU_ReadMem(4 bytes @ 0x40011008) -- Data:  FF FF 00 00  returns 0x00 (0001ms, 1669ms total)
T1454 008:437 JLINK_ReadMem (0x40011008, 0x0004 Bytes, ...) -- CPU is running -- CPU_ReadMem(4 bytes @ 0x40011008) -- Data:  FF FF 00 00  returns 0x00 (0001ms, 1670ms total)
T1454 008:438 JLINK_ReadMem (0x40011008, 0x0004 Bytes, ...) -- CPU is running -- CPU_ReadMem(4 bytes @ 0x40011008) -- Data:  FF FF 00 00  returns 0x00 (0001ms, 1671ms total)
T1454 008:445 JLINK_ReadMem (0x4001100C, 0x0004 Bytes, ...) -- CPU is running -- CPU_ReadMem(4 bytes @ 0x4001100C) -- Data:  0F 00 00 00  returns 0x00 (0002ms, 1672ms total)
T1454 008:447 JLINK_ReadMem (0x4001100C, 0x0004 Bytes, ...) -- CPU is running -- CPU_ReadMem(4 bytes @ 0x4001100C) -- Data:  0F 00 00 00  returns 0x00 (0001ms, 1674ms total)
T1454 008:448 JLINK_ReadMem (0x4001100C, 0x0004 Bytes, ...) -- CPU is running -- CPU_ReadMem(4 bytes @ 0x4001100C) -- Data:  0F 00 00 00  returns 0x00 (0001ms, 1675ms total)
T1454 008:449 JLINK_ReadMem (0x4001100C, 0x0004 Bytes, ...) -- CPU is running -- CPU_ReadMem(4 bytes @ 0x4001100C) -- Data:  0F 00 00 00  returns 0x00 (0001ms, 1676ms total)
T1454 008:450 JLINK_ReadMem (0x4001100C, 0x0004 Bytes, ...) -- CPU is running -- CPU_ReadMem(4 bytes @ 0x4001100C) -- Data:  0F 00 00 00  returns 0x00 (0001ms, 1677ms total)
T1454 008:451 JLINK_ReadMem (0x4001100C, 0x0004 Bytes, ...) -- CPU is running -- CPU_ReadMem(4 bytes @ 0x4001100C) -- Data:  0F 00 00 00  returns 0x00 (0001ms, 1678ms total)
T1454 008:452 JLINK_ReadMem (0x4001100C, 0x0004 Bytes, ...) -- CPU is running -- CPU_ReadMem(4 bytes @ 0x4001100C) -- Data:  0F 00 00 00  returns 0x00 (0001ms, 1679ms total)
T1454 008:453 JLINK_ReadMem (0x4001100C, 0x0004 Bytes, ...) -- CPU is running -- CPU_ReadMem(4 bytes @ 0x4001100C) -- Data:  0F 00 00 00  returns 0x00 (0002ms, 1680ms total)
T1454 008:455 JLINK_ReadMem (0x4001100C, 0x0004 Bytes, ...) -- CPU is running -- CPU_ReadMem(4 bytes @ 0x4001100C) -- Data:  0F 00 00 00  returns 0x00 (0002ms, 1682ms total)
T1454 008:457 JLINK_ReadMem (0x4001100C, 0x0004 Bytes, ...) -- CPU is running -- CPU_ReadMem(4 bytes @ 0x4001100C) -- Data:  0F 00 00 00  returns 0x00 (0001ms, 1684ms total)
T1454 008:458 JLINK_ReadMem (0x4001100C, 0x0004 Bytes, ...) -- CPU is running -- CPU_ReadMem(4 bytes @ 0x4001100C) -- Data:  0F 00 00 00  returns 0x00 (0001ms, 1685ms total)
T1454 008:459 JLINK_ReadMem (0x4001100C, 0x0004 Bytes, ...) -- CPU is running -- CPU_ReadMem(4 bytes @ 0x4001100C) -- Data:  0F 00 00 00  returns 0x00 (0001ms, 1686ms total)
T1454 008:460 JLINK_ReadMem (0x4001100C, 0x0004 Bytes, ...) -- CPU is running -- CPU_ReadMem(4 bytes @ 0x4001100C) -- Data:  0F 00 00 00  returns 0x00 (0001ms, 1687ms total)
T1454 008:461 JLINK_ReadMem (0x4001100C, 0x0004 Bytes, ...) -- CPU is running -- CPU_ReadMem(4 bytes @ 0x4001100C) -- Data:  0F 00 00 00  returns 0x00 (0001ms, 1688ms total)
T1454 008:462 JLINK_ReadMem (0x4001100C, 0x0004 Bytes, ...) -- CPU is running -- CPU_ReadMem(4 bytes @ 0x4001100C) -- Data:  0F 00 00 00  returns 0x00 (0001ms, 1689ms total)
T1454 008:463 JLINK_ReadMem (0x4001100C, 0x0004 Bytes, ...) -- CPU is running -- CPU_ReadMem(4 bytes @ 0x4001100C) -- Data:  0F 00 00 00  returns 0x00 (0001ms, 1690ms total)
T1454 008:464 JLINK_ReadMem (0x4001100C, 0x0004 Bytes, ...) -- CPU is running -- CPU_ReadMem(4 bytes @ 0x4001100C) -- Data:  0F 00 00 00  returns 0x00 (0001ms, 1691ms total)
T12CC 008:472 JLINK_IsHalted()  returns FALSE (0001ms, 1692ms total)
T12CC 008:573 JLINK_IsHalted()  returns FALSE (0001ms, 1692ms total)
T12CC 008:674 JLINK_IsHalted()  returns FALSE (0003ms, 1692ms total)
T12CC 008:777 JLINK_IsHalted()  returns FALSE (0002ms, 1692ms total)
T12CC 008:879 JLINK_IsHalted()  returns FALSE (0001ms, 1692ms total)
T12CC 008:980 JLINK_ReadMemU32(0xE0001004, 0x0001 Items, ...) -- CPU is running -- CPU_ReadMem(4 bytes @ 0xE0001004) -- Data:  84 F8 21 05  returns 0x01 (0001ms, 1692ms total)
T1454 008:982 JLINK_ReadMem (0x40011000, 0x0018 Bytes, ...) -- CPU is running -- CPU_ReadMem(24 bytes @ 0x40011000) -- Data:  22 22 44 44 44 44 44 44 FE FF 00 00 0E 00 00 00 ...  returns 0x00 (0002ms, 1693ms total)
T1454 008:984 JLINK_ReadMem (0x40011018, 0x0004 Bytes, ...) -- CPU is running -- CPU_ReadMem(4 bytes @ 0x40011018) -- Data:  00 00 00 00  returns 0x00 (0001ms, 1695ms total)
T1454 008:985 JLINK_ReadMem (0x40011008, 0x0004 Bytes, ...) -- CPU is running -- CPU_ReadMem(4 bytes @ 0x40011008) -- Data:  FE FF 00 00  returns 0x00 (0002ms, 1696ms total)
T1454 008:987 JLINK_ReadMem (0x40011008, 0x0004 Bytes, ...) -- CPU is running -- CPU_ReadMem(4 bytes @ 0x40011008) -- Data:  FE FF 00 00  returns 0x00 (0001ms, 1698ms total)
T1454 008:988 JLINK_ReadMem (0x40011008, 0x0004 Bytes, ...) -- CPU is running -- CPU_ReadMem(4 bytes @ 0x40011008) -- Data:  FE FF 00 00  returns 0x00 (0001ms, 1699ms total)
T1454 008:989 JLINK_ReadMem (0x40011008, 0x0004 Bytes, ...) -- CPU is running -- CPU_ReadMem(4 bytes @ 0x40011008) -- Data:  FE FF 00 00  returns 0x00 (0001ms, 1700ms total)
T1454 008:990 JLINK_ReadMem (0x40011008, 0x0004 Bytes, ...) -- CPU is running -- CPU_ReadMem(4 bytes @ 0x40011008) -- Data:  FE FF 00 00  returns 0x00 (0001ms, 1701ms total)
T1454 008:991 JLINK_ReadMem (0x40011008, 0x0004 Bytes, ...) -- CPU is running -- CPU_ReadMem(4 bytes @ 0x40011008) -- Data:  FE FF 00 00  returns 0x00 (0001ms, 1702ms total)
T1454 008:992 JLINK_ReadMem (0x40011008, 0x0004 Bytes, ...) -- CPU is running -- CPU_ReadMem(4 bytes @ 0x40011008) -- Data:  FE FF 00 00  returns 0x00 (0001ms, 1703ms total)
T1454 008:993 JLINK_ReadMem (0x40011008, 0x0004 Bytes, ...) -- CPU is running -- CPU_ReadMem(4 bytes @ 0x40011008) -- Data:  FE FF 00 00  returns 0x00 (0001ms, 1704ms total)
T1454 008:994 JLINK_ReadMem (0x40011008, 0x0004 Bytes, ...) -- CPU is running -- CPU_ReadMem(4 bytes @ 0x40011008) -- Data:  FE FF 00 00  returns 0x00 (0001ms, 1705ms total)
T1454 008:995 JLINK_ReadMem (0x40011008, 0x0004 Bytes, ...) -- CPU is running -- CPU_ReadMem(4 bytes @ 0x40011008) -- Data:  FE FF 00 00  returns 0x00 (0001ms, 1706ms total)
T1454 008:996 JLINK_ReadMem (0x40011008, 0x0004 Bytes, ...) -- CPU is running -- CPU_ReadMem(4 bytes @ 0x40011008) -- Data:  FE FF 00 00  returns 0x00 (0001ms, 1707ms total)
T1454 008:997 JLINK_ReadMem (0x40011008, 0x0004 Bytes, ...) -- CPU is running -- CPU_ReadMem(4 bytes @ 0x40011008) -- Data:  FE FF 00 00  returns 0x00 (0001ms, 1708ms total)
T1454 008:998 JLINK_ReadMem (0x40011008, 0x0004 Bytes, ...) -- CPU is running -- CPU_ReadMem(4 bytes @ 0x40011008) -- Data:  FE FF 00 00  returns 0x00 (0001ms, 1709ms total)
T1454 008:999 JLINK_ReadMem (0x40011008, 0x0004 Bytes, ...) -- CPU is running -- CPU_ReadMem(4 bytes @ 0x40011008) -- Data:  FE FF 00 00  returns 0x00 (0001ms, 1710ms total)
T1454 009:000 JLINK_ReadMem (0x40011008, 0x0004 Bytes, ...) -- CPU is running -- CPU_ReadMem(4 bytes @ 0x40011008) -- Data:  FE FF 00 00  returns 0x00 (0001ms, 1711ms total)
T1454 009:001 JLINK_ReadMem (0x40011008, 0x0004 Bytes, ...) -- CPU is running -- CPU_ReadMem(4 bytes @ 0x40011008) -- Data:  FE FF 00 00  returns 0x00 (0001ms, 1712ms total)
T1454 009:002 JLINK_ReadMem (0x40011008, 0x0004 Bytes, ...) -- CPU is running -- CPU_ReadMem(4 bytes @ 0x40011008) -- Data:  FE FF 00 00  returns 0x00 (0001ms, 1713ms total)
T1454 009:009 JLINK_ReadMem (0x4001100C, 0x0004 Bytes, ...) -- CPU is running -- CPU_ReadMem(4 bytes @ 0x4001100C) -- Data:  0E 00 00 00  returns 0x00 (0002ms, 1714ms total)
T1454 009:011 JLINK_ReadMem (0x4001100C, 0x0004 Bytes, ...) -- CPU is running -- CPU_ReadMem(4 bytes @ 0x4001100C) -- Data:  0E 00 00 00  returns 0x00 (0002ms, 1716ms total)
T1454 009:013 JLINK_ReadMem (0x4001100C, 0x0004 Bytes, ...) -- CPU is running -- CPU_ReadMem(4 bytes @ 0x4001100C) -- Data:  0E 00 00 00  returns 0x00 (0001ms, 1718ms total)
T1454 009:014 JLINK_ReadMem (0x4001100C, 0x0004 Bytes, ...) -- CPU is running -- CPU_ReadMem(4 bytes @ 0x4001100C) -- Data:  0E 00 00 00  returns 0x00 (0002ms, 1719ms total)
T1454 009:016 JLINK_ReadMem (0x4001100C, 0x0004 Bytes, ...) -- CPU is running -- CPU_ReadMem(4 bytes @ 0x4001100C) -- Data:  0E 00 00 00  returns 0x00 (0002ms, 1721ms total)
T1454 009:018 JLINK_ReadMem (0x4001100C, 0x0004 Bytes, ...) -- CPU is running -- CPU_ReadMem(4 bytes @ 0x4001100C) -- Data:  0E 00 00 00  returns 0x00 (0001ms, 1723ms total)
T1454 009:019 JLINK_ReadMem (0x4001100C, 0x0004 Bytes, ...) -- CPU is running -- CPU_ReadMem(4 bytes @ 0x4001100C) -- Data:  0E 00 00 00  returns 0x00 (0001ms, 1724ms total)
T1454 009:020 JLINK_ReadMem (0x4001100C, 0x0004 Bytes, ...) -- CPU is running -- CPU_ReadMem(4 bytes @ 0x4001100C) -- Data:  0E 00 00 00  returns 0x00 (0001ms, 1725ms total)
T1454 009:021 JLINK_ReadMem (0x4001100C, 0x0004 Bytes, ...) -- CPU is running -- CPU_ReadMem(4 bytes @ 0x4001100C) -- Data:  0E 00 00 00  returns 0x00 (0001ms, 1726ms total)
T1454 009:022 JLINK_ReadMem (0x4001100C, 0x0004 Bytes, ...) -- CPU is running -- CPU_ReadMem(4 bytes @ 0x4001100C) -- Data:  0E 00 00 00  returns 0x00 (0001ms, 1727ms total)
T1454 009:023 JLINK_ReadMem (0x4001100C, 0x0004 Bytes, ...) -- CPU is running -- CPU_ReadMem(4 bytes @ 0x4001100C) -- Data:  0E 00 00 00  returns 0x00 (0001ms, 1728ms total)
T1454 009:024 JLINK_ReadMem (0x4001100C, 0x0004 Bytes, ...) -- CPU is running -- CPU_ReadMem(4 bytes @ 0x4001100C) -- Data:  0E 00 00 00  returns 0x00 (0001ms, 1729ms total)
T1454 009:025 JLINK_ReadMem (0x4001100C, 0x0004 Bytes, ...) -- CPU is running -- CPU_ReadMem(4 bytes @ 0x4001100C) -- Data:  0E 00 00 00  returns 0x00 (0001ms, 1730ms total)
T1454 009:026 JLINK_ReadMem (0x4001100C, 0x0004 Bytes, ...) -- CPU is running -- CPU_ReadMem(4 bytes @ 0x4001100C) -- Data:  0E 00 00 00  returns 0x00 (0001ms, 1731ms total)
T1454 009:027 JLINK_ReadMem (0x4001100C, 0x0004 Bytes, ...) -- CPU is running -- CPU_ReadMem(4 bytes @ 0x4001100C) -- Data:  0E 00 00 00  returns 0x00 (0001ms, 1732ms total)
T1454 009:028 JLINK_ReadMem (0x4001100C, 0x0004 Bytes, ...) -- CPU is running -- CPU_ReadMem(4 bytes @ 0x4001100C) -- Data:  0E 00 00 00  returns 0x00 (0001ms, 1733ms total)
T1454 009:029 JLINK_ReadMem (0x4001100C, 0x0004 Bytes, ...) -- CPU is running -- CPU_ReadMem(4 bytes @ 0x4001100C) -- Data:  0E 00 00 00  returns 0x00 (0001ms, 1734ms total)
T12CC 009:038 JLINK_IsHalted()  returns FALSE (0002ms, 1735ms total)
T12CC 009:141 JLINK_IsHalted()  returns FALSE (0001ms, 1735ms total)
T12CC 009:242 JLINK_IsHalted()  returns FALSE (0001ms, 1735ms total)
T12CC 009:343 JLINK_IsHalted()  returns FALSE (0001ms, 1735ms total)
T12CC 009:444 JLINK_IsHalted()  returns FALSE (0001ms, 1735ms total)
T12CC 009:545 JLINK_ReadMemU32(0xE0001004, 0x0001 Items, ...) -- CPU is running -- CPU_ReadMem(4 bytes @ 0xE0001004) -- Data:  69 BE 8E 07  returns 0x01 (0001ms, 1735ms total)
T1454 009:546 JLINK_ReadMem (0x40011000, 0x0018 Bytes, ...) -- CPU is running -- CPU_ReadMem(24 bytes @ 0x40011000) -- Data:  22 22 44 44 44 44 44 44 FE FF 00 00 0E 00 00 00 ...  returns 0x00 (0002ms, 1736ms total)
T1454 009:548 JLINK_ReadMem (0x40011018, 0x0004 Bytes, ...) -- CPU is running -- CPU_ReadMem(4 bytes @ 0x40011018) -- Data:  00 00 00 00  returns 0x00 (0001ms, 1738ms total)
T12CC 009:549 JLINK_IsHalted()  returns FALSE (0002ms, 1739ms total)
T12CC 009:651 JLINK_IsHalted()  returns FALSE (0001ms, 1739ms total)
T12CC 009:752 JLINK_IsHalted()  returns FALSE (0001ms, 1739ms total)
T12CC 009:853 JLINK_IsHalted()  returns FALSE (0002ms, 1739ms total)
T12CC 009:955 JLINK_IsHalted()  returns FALSE (0001ms, 1739ms total)
T12CC 010:056 JLINK_IsHalted()  returns FALSE (0001ms, 1739ms total)
T12CC 010:157 JLINK_ReadMemU32(0xE0001004, 0x0001 Items, ...) -- CPU is running -- CPU_ReadMem(4 bytes @ 0xE0001004) -- Data:  65 1C 2F 0A  returns 0x01 (0001ms, 1739ms total)
T1454 010:158 JLINK_ReadMem (0x40011000, 0x0018 Bytes, ...) -- CPU is running -- CPU_ReadMem(24 bytes @ 0x40011000) -- Data:  22 22 44 44 44 44 44 44 FD FF 00 00 0D 00 00 00 ...  returns 0x00 (0002ms, 1740ms total)
T1454 010:160 JLINK_ReadMem (0x40011018, 0x0004 Bytes, ...) -- CPU is running -- CPU_ReadMem(4 bytes @ 0x40011018) -- Data:  00 00 00 00  returns 0x00 (0001ms, 1742ms total)
T1454 010:161 JLINK_ReadMem (0x40011008, 0x0004 Bytes, ...) -- CPU is running -- CPU_ReadMem(4 bytes @ 0x40011008) -- Data:  FD FF 00 00  returns 0x00 (0002ms, 1743ms total)
T1454 010:163 JLINK_ReadMem (0x40011008, 0x0004 Bytes, ...) -- CPU is running -- CPU_ReadMem(4 bytes @ 0x40011008) -- Data:  FD FF 00 00  returns 0x00 (0001ms, 1745ms total)
T1454 010:164 JLINK_ReadMem (0x40011008, 0x0004 Bytes, ...) -- CPU is running -- CPU_ReadMem(4 bytes @ 0x40011008) -- Data:  FD FF 00 00  returns 0x00 (0001ms, 1746ms total)
T1454 010:165 JLINK_ReadMem (0x40011008, 0x0004 Bytes, ...) -- CPU is running -- CPU_ReadMem(4 bytes @ 0x40011008) -- Data:  FD FF 00 00  returns 0x00 (0001ms, 1747ms total)
T1454 010:166 JLINK_ReadMem (0x40011008, 0x0004 Bytes, ...) -- CPU is running -- CPU_ReadMem(4 bytes @ 0x40011008) -- Data:  FD FF 00 00  returns 0x00 (0001ms, 1748ms total)
T1454 010:167 JLINK_ReadMem (0x40011008, 0x0004 Bytes, ...) -- CPU is running -- CPU_ReadMem(4 bytes @ 0x40011008) -- Data:  FD FF 00 00  returns 0x00 (0001ms, 1749ms total)
T1454 010:168 JLINK_ReadMem (0x40011008, 0x0004 Bytes, ...) -- CPU is running -- CPU_ReadMem(4 bytes @ 0x40011008) -- Data:  FD FF 00 00  returns 0x00 (0001ms, 1750ms total)
T1454 010:169 JLINK_ReadMem (0x40011008, 0x0004 Bytes, ...) -- CPU is running -- CPU_ReadMem(4 bytes @ 0x40011008) -- Data:  FD FF 00 00  returns 0x00 (0001ms, 1751ms total)
T1454 010:170 JLINK_ReadMem (0x40011008, 0x0004 Bytes, ...) -- CPU is running -- CPU_ReadMem(4 bytes @ 0x40011008) -- Data:  FD FF 00 00  returns 0x00 (0001ms, 1752ms total)
T1454 010:171 JLINK_ReadMem (0x40011008, 0x0004 Bytes, ...) -- CPU is running -- CPU_ReadMem(4 bytes @ 0x40011008) -- Data:  FD FF 00 00  returns 0x00 (0001ms, 1753ms total)
T1454 010:172 JLINK_ReadMem (0x40011008, 0x0004 Bytes, ...) -- CPU is running -- CPU_ReadMem(4 bytes @ 0x40011008) -- Data:  FD FF 00 00  returns 0x00 (0001ms, 1754ms total)
T1454 010:173 JLINK_ReadMem (0x40011008, 0x0004 Bytes, ...) -- CPU is running -- CPU_ReadMem(4 bytes @ 0x40011008) -- Data:  FD FF 00 00  returns 0x00 (0001ms, 1755ms total)
T1454 010:174 JLINK_ReadMem (0x40011008, 0x0004 Bytes, ...) -- CPU is running -- CPU_ReadMem(4 bytes @ 0x40011008) -- Data:  FD FF 00 00  returns 0x00 (0001ms, 1756ms total)
T1454 010:175 JLINK_ReadMem (0x40011008, 0x0004 Bytes, ...) -- CPU is running -- CPU_ReadMem(4 bytes @ 0x40011008) -- Data:  FD FF 00 00  returns 0x00 (0001ms, 1757ms total)
T1454 010:176 JLINK_ReadMem (0x40011008, 0x0004 Bytes, ...) -- CPU is running -- CPU_ReadMem(4 bytes @ 0x40011008) -- Data:  FD FF 00 00  returns 0x00 (0001ms, 1758ms total)
T1454 010:177 JLINK_ReadMem (0x40011008, 0x0004 Bytes, ...) -- CPU is running -- CPU_ReadMem(4 bytes @ 0x40011008) -- Data:  FD FF 00 00  returns 0x00 (0001ms, 1759ms total)
T1454 010:178 JLINK_ReadMem (0x40011008, 0x0004 Bytes, ...) -- CPU is running -- CPU_ReadMem(4 bytes @ 0x40011008) -- Data:  FD FF 00 00  returns 0x00 (0001ms, 1760ms total)
T1454 010:186 JLINK_ReadMem (0x4001100C, 0x0004 Bytes, ...) -- CPU is running -- CPU_ReadMem(4 bytes @ 0x4001100C) -- Data:  0D 00 00 00  returns 0x00 (0001ms, 1761ms total)
T1454 010:187 JLINK_ReadMem (0x4001100C, 0x0004 Bytes, ...) -- CPU is running -- CPU_ReadMem(4 bytes @ 0x4001100C) -- Data:  0D 00 00 00  returns 0x00 (0001ms, 1762ms total)
T1454 010:188 JLINK_ReadMem (0x4001100C, 0x0004 Bytes, ...) -- CPU is running -- CPU_ReadMem(4 bytes @ 0x4001100C) -- Data:  0D 00 00 00  returns 0x00 (0001ms, 1763ms total)
T1454 010:189 JLINK_ReadMem (0x4001100C, 0x0004 Bytes, ...) -- CPU is running -- CPU_ReadMem(4 bytes @ 0x4001100C) -- Data:  0D 00 00 00  returns 0x00 (0001ms, 1764ms total)
T1454 010:190 JLINK_ReadMem (0x4001100C, 0x0004 Bytes, ...) -- CPU is running -- CPU_ReadMem(4 bytes @ 0x4001100C) -- Data:  0D 00 00 00  returns 0x00 (0001ms, 1765ms total)
T1454 010:191 JLINK_ReadMem (0x4001100C, 0x0004 Bytes, ...) -- CPU is running -- CPU_ReadMem(4 bytes @ 0x4001100C) -- Data:  0D 00 00 00  returns 0x00 (0001ms, 1766ms total)
T1454 010:192 JLINK_ReadMem (0x4001100C, 0x0004 Bytes, ...) -- CPU is running -- CPU_ReadMem(4 bytes @ 0x4001100C) -- Data:  0D 00 00 00  returns 0x00 (0001ms, 1767ms total)
T1454 010:193 JLINK_ReadMem (0x4001100C, 0x0004 Bytes, ...) -- CPU is running -- CPU_ReadMem(4 bytes @ 0x4001100C) -- Data:  0D 00 00 00  returns 0x00 (0002ms, 1768ms total)
T1454 010:195 JLINK_ReadMem (0x4001100C, 0x0004 Bytes, ...) -- CPU is running -- CPU_ReadMem(4 bytes @ 0x4001100C) -- Data:  0D 00 00 00  returns 0x00 (0001ms, 1770ms total)
T1454 010:196 JLINK_ReadMem (0x4001100C, 0x0004 Bytes, ...) -- CPU is running -- CPU_ReadMem(4 bytes @ 0x4001100C) -- Data:  0D 00 00 00  returns 0x00 (0001ms, 1771ms total)
T1454 010:197 JLINK_ReadMem (0x4001100C, 0x0004 Bytes, ...) -- CPU is running -- CPU_ReadMem(4 bytes @ 0x4001100C) -- Data:  0D 00 00 00  returns 0x00 (0001ms, 1772ms total)
T1454 010:198 JLINK_ReadMem (0x4001100C, 0x0004 Bytes, ...) -- CPU is running -- CPU_ReadMem(4 bytes @ 0x4001100C) -- Data:  0D 00 00 00  returns 0x00 (0001ms, 1773ms total)
T1454 010:199 JLINK_ReadMem (0x4001100C, 0x0004 Bytes, ...) -- CPU is running -- CPU_ReadMem(4 bytes @ 0x4001100C) -- Data:  0D 00 00 00  returns 0x00 (0001ms, 1774ms total)
T1454 010:200 JLINK_ReadMem (0x4001100C, 0x0004 Bytes, ...) -- CPU is running -- CPU_ReadMem(4 bytes @ 0x4001100C) -- Data:  0D 00 00 00  returns 0x00 (0001ms, 1775ms total)
T1454 010:201 JLINK_ReadMem (0x4001100C, 0x0004 Bytes, ...) -- CPU is running -- CPU_ReadMem(4 bytes @ 0x4001100C) -- Data:  0D 00 00 00  returns 0x00 (0002ms, 1776ms total)
T1454 010:203 JLINK_ReadMem (0x4001100C, 0x0004 Bytes, ...) -- CPU is running -- CPU_ReadMem(4 bytes @ 0x4001100C) -- Data:  0D 00 00 00  returns 0x00 (0001ms, 1778ms total)
T1454 010:204 JLINK_ReadMem (0x4001100C, 0x0004 Bytes, ...) -- CPU is running -- CPU_ReadMem(4 bytes @ 0x4001100C) -- Data:  0D 00 00 00  returns 0x00 (0001ms, 1779ms total)
T12CC 010:211 JLINK_IsHalted()  returns FALSE (0001ms, 1780ms total)
T12CC 010:312 JLINK_IsHalted()  returns FALSE (0001ms, 1780ms total)
T12CC 010:413 JLINK_IsHalted()  returns FALSE (0001ms, 1780ms total)
T12CC 010:514 JLINK_IsHalted()  returns FALSE (0001ms, 1780ms total)
T12CC 010:615 JLINK_IsHalted()  returns FALSE (0001ms, 1780ms total)
T12CC 010:716 JLINK_ReadMemU32(0xE0001004, 0x0001 Items, ...) -- CPU is running -- CPU_ReadMem(4 bytes @ 0xE0001004) -- Data:  C2 46 95 0C  returns 0x01 (0001ms, 1780ms total)
T1454 010:718 JLINK_ReadMem (0x40011000, 0x0018 Bytes, ...) -- CPU is running -- CPU_ReadMem(24 bytes @ 0x40011000) -- Data:  22 22 44 44 44 44 44 44 FD FF 00 00 0D 00 00 00 ...  returns 0x00 (0001ms, 1781ms total)
T1454 010:719 JLINK_ReadMem (0x40011018, 0x0004 Bytes, ...) -- CPU is running -- CPU_ReadMem(4 bytes @ 0x40011018) -- Data:  00 00 00 00  returns 0x00 (0002ms, 1782ms total)
T12CC 010:721 JLINK_IsHalted()  returns FALSE (0002ms, 1784ms total)
T12CC 010:823 JLINK_IsHalted()  returns FALSE (0001ms, 1784ms total)
T12CC 010:924 JLINK_Halt()  returns 0x00 (0007ms, 1784ms total)
T12CC 010:931 JLINK_IsHalted()  returns TRUE (0000ms, 1791ms total)
T12CC 010:931 JLINK_IsHalted()  returns TRUE (0000ms, 1791ms total)
T12CC 010:931 JLINK_IsHalted()  returns TRUE (0000ms, 1791ms total)
